
**** 10/24/19 23:12:38 ****** PSpice 16.5.0 (April 2011) ****** ID# 0 ********

 ** Profile: "SCHEMATIC1-+984"  [ C:\Users\joel_\Documents\p3\Queso rpresa\figp18_1-pspicefiles\schematic1\+984.sim ] 


 ****     CIRCUIT DESCRIPTION


******************************************************************************




** Creating circuit file "+984.cir" 
** WARNING: THIS AUTOMATICALLY GENERATED FILE MAY BE OVERWRITTEN BY SUBSEQUENT SIMULATIONS

*Libraries: 
* Profile Libraries :
* Local Libraries :
* From [PSPICE NETLIST] section of C:\Cadence\SPB_16.5\tools\PSpice\PSpice.ini file:
.lib "nom.lib" 

*Analysis directives: 
.TRAN  0 10m 0 0 
.PROBE V(alias(*)) I(alias(*)) W(alias(*)) D(alias(*)) NOISE(alias(*)) 
.INC "..\SCHEMATIC1.net" 



**** INCLUDING SCHEMATIC1.net ****
* source FIGP18_1
X_U1         N00178 N00149 N00248 N00257 N00166 LM741/NS
R_R1         N00348 N00149  1k  
R_R2         N00341 N00178  1k  
R_R3         0 N00178  1k  
R_R4         N00149 N00166  1k  
V_V1         N00248 0 DC 15  
V_V2         N00257 0 DC -15  
V_V3         N00341 0  
+SIN 0 200mV 1k 0 0 0
V_V4         N00348 0  
+SIN 0 50mV 1k 0 0 0

**** RESUMING +984.cir ****
.END

**** 10/24/19 23:12:38 ****** PSpice 16.5.0 (April 2011) ****** ID# 0 ********

 ** Profile: "SCHEMATIC1-+984"  [ C:\Users\joel_\Documents\p3\Queso rpresa\figp18_1-pspicefiles\schematic1\+984.sim ] 


 ****     Diode MODEL PARAMETERS


******************************************************************************




               X_U1.DX         
          IS    1.000000E-15 


**** 10/24/19 23:12:38 ****** PSpice 16.5.0 (April 2011) ****** ID# 0 ********

 ** Profile: "SCHEMATIC1-+984"  [ C:\Users\joel_\Documents\p3\Queso rpresa\figp18_1-pspicefiles\schematic1\+984.sim ] 


 ****     BJT MODEL PARAMETERS


******************************************************************************




               X_U1.QX         
               NPN             
       LEVEL    1            
          IS  100.000000E-18 
          BF  625            
          NF    1            
          BR    1            
          NR    1            
         ISS    0            
          RE    0            
          RC    0            
         CJE    0            
         VJE     .75         
         CJC    0            
         VJC     .75         
         MJC     .33         
        XCJC    1            
         CJS    0            
         VJS     .75         
          KF    0            
          AF    1            
          CN    2.42         
           D     .87         


**** 10/24/19 23:12:38 ****** PSpice 16.5.0 (April 2011) ****** ID# 0 ********

 ** Profile: "SCHEMATIC1-+984"  [ C:\Users\joel_\Documents\p3\Queso rpresa\figp18_1-pspicefiles\schematic1\+984.sim ] 


 ****     INITIAL TRANSIENT SOLUTION       TEMPERATURE =   27.000 DEG C


******************************************************************************



 NODE   VOLTAGE     NODE   VOLTAGE     NODE   VOLTAGE     NODE   VOLTAGE


(N00149) 971.1E-06 (N00166)     .0020 (N00178)-28.93E-06 (N00248)   15.0000     

(N00257)  -15.0000 (N00341)    0.0000 (N00348)    0.0000 (X_U1.3) 471.1E-06     

(X_U1.4)    -.6957 (X_U1.5)   14.9740 (X_U1.6)   14.9740 (X_U1.7) 971.1E-06     

(X_U1.8)   13.3700 (X_U1.9)     .0022 (X_U1.10)  -13.3700                       

(X_U1.15)     .0022                   (X_U1.16) 14.90E-09                       

(X_U1.17)    0.0000                   (X_U1.20)     .1820                       

(X_U1.21)    -.1780                   (X_U1.22)     .0020                       

(X_U1.23)     .0022                   (X_U1.24)     .0041                       

(X_U1.25) 319.1E-06                   (X_U1.26)     .6520                       

(X_U1.27)    -.6480                   (X_U1.49)    0.0000                       

(X_U1.98)    0.0000                   




    VOLTAGE SOURCE CURRENTS
    NAME         CURRENT

    V_V1        -1.702E-03
    V_V2         1.701E-03
    V_V3        -2.893E-08
    V_V4         9.711E-07
    X_U1.V2      1.337E-11
    X_U1.V3      1.337E-11
    X_U1.V6     -7.574E-05
    X_U1.V7     -7.681E-05
    X_U1.V5     -1.812E-13
    X_U1.V4     -1.808E-13

    TOTAL POWER DISSIPATION   5.11E-02  WATTS



          JOB CONCLUDED

**** 10/24/19 23:12:38 ****** PSpice 16.5.0 (April 2011) ****** ID# 0 ********

 ** Profile: "SCHEMATIC1-+984"  [ C:\Users\joel_\Documents\p3\Queso rpresa\figp18_1-pspicefiles\schematic1\+984.sim ] 


 ****     JOB STATISTICS SUMMARY


******************************************************************************



  Total job time (using Solver 1)   =         .08
